,BGL,FREQ,S11,S11_Scaled,S11_Derivative,S11_Mean,S11_Std,S11_Min,S11_Max
0,100,0.015,-7.396269724,0.8425707780774897,,-6.349324396611999,5.586062025228471,-17.52089902,-0.719464768
10003,100,0.0224999995,-7.397663885,0.8425379058155453,,,,,
1,100,0.029999999,-7.399058046,0.8425050335536011,-0.18588814572592144,-6.349324396611999,5.586062025228471,-17.52089902,-0.719464768
10004,100,0.0375000005,-7.4013383025,0.8424512684655171,-0.2449611503359288,,,,
2,100,0.045000002,-7.403618559,0.8423975033774331,-0.3040341391931381,-6.349324396611999,5.586062025228471,-17.52089902,-0.719464768
10005,100,0.0525000005,-7.4067215925,0.8423243384201334,-0.35888600000001014,,,,
3,100,0.059999999,-7.409824626,0.8422511734628336,-0.4137378827475716,-6.349324396611999,5.586062025228471,-17.52089902,-0.719464768
10006,100,0.067500001,-7.4136590825,0.8421607626290188,-0.46249931791665155,,,,
4,100,0.075000003,-7.417493539,0.8420703517952041,-0.5112607303304608,-6.349324396611999,5.586062025228471,-17.52089902,-0.719464768
10007,100,0.0825000035,-7.4219441595,0.8419654127222486,-0.5523383746102729,,,,
5,100,0.090000004,-7.42639478,0.8418604736492931,-0.5934160271056134,-6.349324396611999,5.586062025228471,-17.52089902,-0.719464768
10008,100,0.09750000049999999,-7.431321226,0.841744315312224,-0.6251378916942402,,,,
6,100,0.104999997,-7.436247672,0.8416281569751549,-0.6568597732012608,-6.349324396611999,5.586062025228471,-17.52089902,-0.719464768
10009,100,0.11249999699999999,-7.4414834135,0.8415047059059738,-0.6774793247452184,,,,
7,100,0.119999997,-7.446719155,0.8413812548367926,-0.6980988666666595,-6.349324396611999,5.586062025228471,-17.52089902,-0.719464768
10010,100,0.127500001,-7.4520755045,0.8412549600086994,-0.7061392116961744,,,,
8,100,0.135000005,-7.457431854,0.8411286651806061,-0.7141795524375674,-6.349324396611999,5.586062025228471,-17.52089902,-0.719464768
10011,100,0.1425000055,-7.4626953315,0.8410045601374168,-0.7079882542702034,,,,
9,100,0.150000006,-7.467958809,0.8408804550942274,-0.7017969532135079,-6.349324396611999,5.586062025228471,-17.52089902,-0.719464768
10012,100,0.1575000065,-7.4728952515,0.8407640610544191,-0.6799946213336785,,,,
10,100,0.165000007,-7.477831694,0.840647667014611,-0.6581922894538503,-6.349324396611999,5.586062025228471,-17.52089902,-0.719464768
10013,100,0.172500007,-7.482187654500001,0.8405449598849645,-0.6194935126836018,,,,
11,100,0.180000007,-7.486543615,0.8404422527553179,-0.5807947333333754,-6.349324396611999,5.586062025228471,-17.52089902,-0.719464768
10014,100,0.1875,-7.49004781,0.8403596290009998,-0.5240106112049204,,,,
12,100,0.194999993,-7.493552005,0.8402770052466817,-0.4672264360779603,-6.349324396611999,5.586062025228471,-17.52089902,-0.719464768
10015,100,0.202499993,-7.4959191305,0.8402211919155879,-0.39142154933004547,,,,
13,100,0.209999993,-7.498286256,0.840165378584494,-0.3156167333333573,-6.349324396611999,5.586062025228471,-17.52089902,-0.719464768
10016,100,0.2174999935,-7.4992221125,0.8401433124673022,-0.22019879266004833,,,,
14,100,0.224999994,-7.500157969,0.8401212463501104,-0.12478085834793508,-6.349324396611999,5.586062025228471,-17.52089902,-0.719464768
10017,100,0.2324999945,-7.499359950500001,0.8401400624503803,-0.00918919938742379,,,,
15,100,0.239999995,-7.498561932,0.8401588785506502,0.10640245957314691,-6.349324396611999,5.586062025228471,-17.52089902,-0.719464768
10018,100,0.24749999499999997,-7.4957285805,0.8402256848037934,0.24209132526367627,,,,
16,100,0.254999995,-7.492895229,0.8402924910569365,0.37778020000001117,-6.349324396611999,5.586062025228471,-17.52089902,-0.719464768
10019,100,0.262500003,-7.4877290915,0.8404143009663662,0.5332989822405072,,,,
17,100,0.270000011,-7.482562954,0.8405361108757958,0.6888175985945985,-6.349324396611999,5.586062025228471,-17.52089902,-0.719464768
10020,100,0.2775000035,-7.474776693,0.8407196994363414,0.8634932045502536,,,,
18,100,0.284999996,-7.466990432,0.840903287996887,1.038169171502463,-6.349324396611999,5.586062025228471,-17.52089902,-0.719464768
10021,100,0.292500004,-7.456313645,0.8411550309010334,1.2308698256376787,,,,
19,100,0.300000012,-7.445636858,0.8414067738051797,1.4235700815252412,-6.349324396611999,5.586062025228471,-17.52089902,-0.719464768
10022,100,0.30750000499999997,-7.4318204485,0.8417325443813283,1.6328796578080194,,,,
20,100,0.314999998,-7.418004039,0.8420583149574769,1.8421896527103345,-6.349324396611999,5.586062025228471,-17.52089902,-0.719464768
10023,100,0.3225000055,-7.400828883000001,0.8424632798266465,2.066104297796452,,,,
21,100,0.330000013,-7.383653727,0.8428682446958161,2.2900185099814894,-6.349324396611999,5.586062025228471,-17.52089902,-0.719464768
10024,100,0.33750000599999996,-7.3629344195,0.843356775434694,2.5262974824568065,,,,
22,100,0.344999999,-7.342215112,0.843845306173572,2.762576911738485,-6.349324396611999,5.586062025228471,-17.52089902,-0.719464768
10025,100,0.3525000065,-7.317803175,0.8444209036746009,3.00874953304169,,,,
23,100,0.360000014,-7.293391238,0.8449965011756299,3.2549216784116592,-6.349324396611999,5.586062025228471,-17.52089902,-0.719464768
10026,100,0.36750000699999996,-7.2651806215,0.8456616659415346,3.508170116394343,,,,
24,100,0.375,-7.236970005,0.8463268307074393,3.7614190439911037,-6.349324396611999,5.586062025228471,-17.52089902,-0.719464768
10027,100,0.38249999300000004,-7.2048985625,0.8470830280611108,4.018807684220452,,,,
25,100,0.389999986,-7.17282712,0.8478392254147822,4.276196324449888,-6.349324396611999,5.586062025228471,-17.52089902,-0.719464768
10028,100,0.3974999935,-7.1368782045,0.8486868478679493,4.534690382177009,,,,
26,100,0.405000001,-7.100929289,0.8495344703211164,4.793183940149417,-6.349324396611999,5.586062025228471,-17.52089902,-0.719464768
10029,100,0.41249999400000004,-7.061129835,0.85047288279796,5.0498911316702975,,,,
27,100,0.419999987,-7.021330381,0.8514112952748034,5.306598819492189,-6.349324396611999,5.586062025228471,-17.52089902,-0.719464768
10030,100,0.4274999945,-6.977750233,0.8524388509449361,5.558639948045352,,,,
28,100,0.435000002,-6.934170085,0.8534664066150688,5.810680589319447,-6.349324396611999,5.586062025228471,-17.52089902,-0.719464768
10031,100,0.44249999500000003,-6.8869196294999995,0.8545805027274862,6.055373364820906,,,,
29,100,0.449999988,-6.839669174,0.8556945988399036,6.300066613395491,-6.349324396611999,5.586062025228471,-17.52089902,-0.719464768
10032,100,0.457499996,-6.7888936645,0.8568918105311214,6.535063897662394,,,,
30,100,0.465000004,-6.738118155,0.8580890222223392,6.770060711935207,-6.349324396611999,5.586062025228471,-17.52089902,-0.719464768
10033,100,0.4724999965,-6.683993795,0.8593651948734808,6.9933244002224955,,,,
31,100,0.479999989,-6.629869435,0.8606413675246224,7.216588549921928,-6.349324396611999,5.586062025228471,-17.52089902,-0.719464768
10034,100,0.487499997,-6.5725983889999995,0.8619917343946875,7.426360152454705,,,,
32,100,0.495000005,-6.515327343,0.8633421012647524,7.636131321459906,-6.349324396611999,5.586062025228471,-17.52089902,-0.719464768
10035,100,0.5024999975,-6.4551310285,0.8647614416553717,7.831157105628071,,,,
33,100,0.50999999,-6.394934714,0.866180782045991,8.026183292850018,-6.349324396611999,5.586062025228471,-17.52089902,-0.719464768
10036,100,0.517499983,-6.332048751,0.8676635403847741,8.20549309864331,,,,
34,100,0.524999976,-6.269162788,0.8691462987235573,8.384802892482634,-6.349324396611999,5.586062025228471,-17.52089902,-0.719464768
10037,100,0.5324999985000001,-6.2038320595,0.8706867010302239,8.547770600637035,,,,
35,100,0.540000021,-6.138501331,0.8722271033368907,8.710737667787047,-6.349324396611999,5.586062025228471,-17.52089902,-0.719464768
10038,100,0.5475000139999999,-6.07097431,0.8738192909842506,8.857174147586761,,,,
36,100,0.555000007,-6.003447289,0.8754114786316106,9.003611203370427,-6.349324396611999,5.586062025228471,-17.52089902,-0.719464768
10039,100,0.5625,-5.933970217000001,0.8770496456079553,9.133614724707018,,,,
37,100,0.569999993,-5.864493145,0.8786878125843001,9.263618246043675,-6.349324396611999,5.586062025228471,-17.52089902,-0.719464768
10040,100,0.5774999860000001,-5.793309244,0.8803662240732817,9.37740695224651,,,,
38,100,0.584999979,-5.722125343,0.8820446355622631,9.491195658449294,-6.349324396611999,5.586062025228471,-17.52089902,-0.719464768
10041,100,0.5925000014999999,-5.649469954000001,0.8837577425698998,9.589276091081397,,,,
39,100,0.600000024,-5.576814565,0.8854708495775365,9.687356137931598,-6.349324396611999,5.586062025228471,-17.52089902,-0.719464768
10042,100,0.607500017,-5.5029113899999995,0.8872133775403159,9.77056083708716,,,,
40,100,0.61500001,-5.429008215,0.8889559055030951,9.853765863514798,-6.349324396611999,5.586062025228471,-17.52089902,-0.719464768
10043,100,0.6225000025,-5.354069711499999,0.8907228449862443,9.922788158695209,,,,
41,100,0.629999995,-5.279131208,0.8924897844693934,9.991810458477111,-6.349324396611999,5.586062025228471,-17.52089902,-0.719464768
10044,100,0.6374999880000001,-5.203357039,0.8942764277135958,10.047521212603762,,,,
42,100,0.644999981,-5.12758287,0.8960630709577982,10.103231963016492,-6.349324396611999,5.586062025228471,-17.52089902,-0.719464768
10045,100,0.6525000034999999,-5.051157943,0.8978650581166837,10.146595915184346,,,,
43,100,0.660000026,-4.974733016,0.8996670452755692,10.189959696787621,-6.349324396611999,5.586062025228471,-17.52089902,-0.719464768
10046,100,0.667500019,-4.897828689000001,0.9014803359800108,10.221939703995528,,,,
44,100,0.675000012,-4.820924362,0.9032936266844523,10.253919836991773,-6.349324396611999,5.586062025228471,-17.52089902,-0.719464768
10047,100,0.6825000050000001,-4.743699233,0.9051144814273201,10.275306656952868,,,,
45,100,0.689999998,-4.666474104,0.9069353361701878,10.29669347691398,-6.349324396611999,5.586062025228471,-17.52089902,-0.719464768
10048,100,0.6974999905,-4.5890740215,0.9087603160587742,10.308357398078869,,,,
46,100,0.704999983,-4.511673939,0.9105852959473604,10.320021320021334,-6.349324396611999,5.586062025228471,-17.52089902,-0.719464768
10049,100,0.712500006,-4.4342308715,0.9124112893589039,10.322865999705192,,,,
47,100,0.720000029,-4.356787804,0.9142372827704476,10.325710667820584,-6.349324396611999,5.586062025228471,-17.52089902,-0.719464768
10050,100,0.7275000215,-4.2794272235,0.9160613312600839,10.32023253575964,,,,
48,100,0.735000014,-4.202066643,0.9178853797497204,10.314754381421015,-6.349324396611999,5.586062025228471,-17.52089902,-0.719464768
10051,100,0.7425000070000001,-4.1249021265,0.9197048053391567,10.30168309162694,,,,
49,100,0.75,-4.04773761,0.921524230928593,10.28861180270436,-6.349324396611999,5.586062025228471,-17.52089902,-0.719464768
10052,100,0.7574999929999999,-3.9708755840000003,0.9233365242377893,10.26844575054947,,,,
50,100,0.764999986,-3.894013558,0.9251488175469857,10.248279698394427,-6.349324396611999,5.586062025228471,-17.52089902,-0.719464768
10053,100,0.7724999785,-3.8175555555000003,0.9269515845774211,10.221345113966922,,,,
51,100,0.779999971,-3.741097553,0.9287543516078565,10.194410527743882,-6.349324396611999,5.586062025228471,-17.52089902,-0.719464768
10054,100,0.787499994,-3.665141492,0.9305452835973829,10.160927067041992,,,,
52,100,0.795000017,-3.589185431,0.9323362155869093,10.127443742505806,-6.349324396611999,5.586062025228471,-17.52089902,-0.719464768
10055,100,0.8025000095,-3.5138231165000002,0.9341131479089104,10.087881275856027,,,,
53,100,0.810000002,-3.438460802,0.9358900802309118,10.048318648318679,-6.349324396611999,5.586062025228471,-17.52089902,-0.719464768
10056,100,0.8174999949999999,-3.363788443,0.9376507444189415,10.002321235577273,,,,
54,100,0.824999988,-3.289116084,0.9394114086069711,9.956323825902233,-6.349324396611999,5.586062025228471,-17.52089902,-0.719464768
10057,100,0.832499981,-3.2152264275,0.9411536178234412,9.904143610533959,,,,
55,100,0.839999974,-3.141336771,0.9428958270399114,9.851963395165788,-6.349324396611999,5.586062025228471,-17.52089902,-0.719464768
10058,100,0.8474999965000001,-3.0683260295,0.9446173127358506,9.793349746871886,,,,
56,100,0.855000019,-2.995315288,0.9463387984317899,9.734736329124383,-6.349324396611999,5.586062025228471,-17.52089902,-0.719464768
10059,100,0.8625000119999999,-2.923283594,0.9480371996304037,9.66948570819821,,,,
57,100,0.870000005,-2.8512519,0.9497356008290174,9.604234830619209,-6.349324396611999,5.586062025228471,-17.52089902,-0.719464768
10060,100,0.8774999975,-2.780303805,0.9514084523600026,9.531995147595286,,,,
58,100,0.88499999,-2.70935571,0.9530813038909878,9.459755459755447,-6.349324396611999,5.586062025228471,-17.52089902,-0.719464768
10061,100,0.892499983,-2.639602407,0.9547259839872586,9.380102267432171,,,,
59,100,0.899999976,-2.569849104,0.9563706640835293,9.300449080419085,-6.349324396611999,5.586062025228471,-17.52089902,-0.719464768
10062,100,0.9074999985000001,-2.501407005,0.9579844279216703,9.2130172798821,,,,
60,100,0.915000021,-2.432964906,0.9595981917598113,9.125585823242565,-6.349324396611999,5.586062025228471,-17.52089902,-0.719464768
10063,100,0.9225000139999999,-2.365961197,0.9611780404813639,9.02971120263185,,,,
61,100,0.930000007,-2.298957488,0.9627578892029164,8.933836204913808,-6.349324396611999,5.586062025228471,-17.52089902,-0.719464768
10064,100,0.9375,-2.2335249675,0.9643006916149424,8.829090207150793,,,,
62,100,0.944999993,-2.168092447,0.9658434940269683,8.724344209387905,-6.349324396611999,5.586062025228471,-17.52089902,-0.719464768
10065,100,0.9524999860000001,-2.104373466,0.9673458937026561,8.610108136100882,,,,
63,100,0.959999979,-2.040654485,0.968848293378344,8.495872062813923,-6.349324396611999,5.586062025228471,-17.52089902,-0.719464768
10066,100,0.9675000014999999,-1.9788020345000001,0.9703066830153612,8.3714201161993,,,,
64,100,0.975000024,-1.916949584,0.9717650726523784,8.246968659094057,-6.349324396611999,5.586062025228471,-17.52089902,-0.719464768
10067,100,0.982500017,-1.8571230555,0.9731756940340344,8.1119235510123,,,,
65,100,0.99000001,-1.797296527,0.9745863154156903,7.976877911752666,-6.349324396611999,5.586062025228471,-17.52089902,-0.719464768
10068,100,0.9975000025,-1.7396649595,0.9759451828514608,7.830547302862375,,,,
66,100,1.004999995,-1.682033392,0.9773040502872313,7.684216684216756,-6.349324396611999,5.586062025228471,-17.52089902,-0.719464768
10069,100,1.012499988,-1.6267709995,0.9786070560677183,7.526271275395554,,,,
67,100,1.019999981,-1.571508607,0.9799100618482051,7.368325877104112,-6.349324396611999,5.586062025228471,-17.52089902,-0.719464768
10070,100,1.027499974,-1.5187994169999999,0.9811528668761412,7.198112218238144,,,,
68,100,1.034999967,-1.466090227,0.9823956719040774,7.027898559371948,-6.349324396611999,5.586062025228471,-17.52089902,-0.719464768
10071,100,1.0424999595000002,-1.4161188495,0.9835739233477041,6.845377783865058,,,,
69,100,1.049999952,-1.366147472,0.9847521747913308,6.662856996190336,-6.349324396611999,5.586062025228471,-17.52089902,-0.719464768
10072,100,1.0575000045,-1.3191030504999999,0.98586141292564,6.467700530231823,,,,
70,100,1.065000057,-1.272058629,0.9869706510599491,6.272545625513982,-6.349324396611999,5.586062025228471,-17.52089902,-0.719464768
10073,100,1.07250005,-1.2281302115,0.9880064184116819,6.064837536659514,,,,
71,100,1.080000043,-1.184201794,0.9890421857634146,5.857127799985915,-6.349324396611999,5.586062025228471,-17.52089902,-0.719464768
10074,100,1.087500036,-1.1435739225,0.9900001311041521,5.63709119461842,,,,
72,100,1.095000029,-1.102946051,0.9909580764448894,5.417054589251006,-6.349324396611999,5.586062025228471,-17.52089902,-0.719464768
10075,100,1.1025000215,-1.0658005535,0.9918339125383333,5.184896278733056,,,,
73,100,1.110000014,-1.028655056,0.9927097486317772,4.952737952737949,-6.349324396611999,5.586062025228471,-17.52089902,-0.719464768
10076,100,1.1175000069999999,-0.9951637245,0.9934994248757201,4.709126485488988,,,,
74,100,1.125,-0.961672393,0.9942891011196631,4.465515034480683,-6.349324396611999,5.586062025228471,-17.52089902,-0.719464768
10077,100,1.1324999930000001,-0.931994787,0.9949888553362221,4.211266430515249,,,,
75,100,1.139999986,-0.902317181,0.995688609552781,3.957017826549947,-6.349324396611999,5.586062025228471,-17.52089902,-0.719464768
10078,100,1.1474999785,-0.8765982915,0.9962950230678348,3.693103269999876,,,,
76,100,1.154999971,-0.850879402,0.9969014365828884,3.4291886958553652,-6.349324396611999,5.586062025228471,-17.52089902,-0.719464768
10079,100,1.162499964,-0.8292452895,0.9974115370756097,3.1568698516408515,,,,
77,100,1.169999957,-0.807611177,0.9979216375683309,2.8845510255809885,-6.349324396611999,5.586062025228471,-17.52089902,-0.719464768
10080,100,1.17749995,-0.790168456,0.9983329112259167,2.6051246647830086,,,,
78,100,1.184999943,-0.772725735,0.9987441848835026,2.325698303985071,-6.349324396611999,5.586062025228471,-17.52089902,-0.719464768
10081,100,1.1924999955,-0.7595552605,0.999054725264201,2.0408735093503676,,,,
79,100,1.200000048,-0.746384786,0.9993652656448994,1.7560509743098511,-6.349324396611999,5.586062025228471,-17.52089902,-0.719464768
10082,100,1.2075000404999998,-0.7375418905,0.9995737680898984,1.4675535973392246,,,,
80,100,1.215000033,-0.728698995,0.9997822705348973,1.1790539123872465,-6.349324396611999,5.586062025228471,-17.52089902,-0.719464768
10083,100,1.222500026,-0.724212414,0.9998880575034514,0.8886326256781855,,,,
81,100,1.230000019,-0.719725833,0.9999938444720056,0.5982113583305967,-6.349324396611999,5.586062025228471,-17.52089902,-0.719464768
10084,100,1.237500012,-0.7195953005,0.9999969222360028,0.3078078539540032,,,,
82,100,1.245000005,-0.719464768,1.0000000000000002,0.017404349577393168,-6.349324396611999,5.586062025228471,-17.52089902,-0.719464768
10085,100,1.2524999975000002,-0.723660645,0.9999010674033846,-0.2710232286557876,,,,
83,100,1.25999999,-0.727856522,0.999802134806769,-0.5594508261174875,-6.349324396611999,5.586062025228471,-17.52089902,-0.719464768
10086,100,1.267499983,-0.7363237755,0.999602489446584,-0.8442095160692099,,,,
84,100,1.274999976,-0.744791029,0.999402844086399,-1.128968187036992,-6.349324396611999,5.586062025228471,-17.52089902,-0.719464768
10087,100,1.2824999689999999,-0.757445157,0.9991044783952824,-1.4080934142205324,,,,
85,100,1.289999962,-0.770099285,0.9988061127041657,-1.6872186414040549,-6.349324396611999,5.586062025228471,-17.52089902,-0.719464768
10088,100,1.2974999550000001,-0.786830736,0.9984116097450525,-1.9590404284376903,,,,
86,100,1.304999948,-0.803562187,0.9980171067859391,-2.230862215471391,-6.349324396611999,5.586062025228471,-17.52089902,-0.719464768
10089,100,1.3125,-0.824240264,0.997529548201494,-2.493961051450202,,,,
87,100,1.320000052,-0.844918341,0.9970419896170488,-2.7570578177324867,-6.349324396611999,5.586062025228471,-17.52089902,-0.719464768
10090,100,1.3275000449999999,-0.869389076,0.9964650057458246,-3.0099117702647256,,,,
88,100,1.335000038,-0.893859811,0.9958880218746003,-3.2627677119165175,-6.349324396611999,5.586062025228471,-17.52089902,-0.719464768
10091,100,1.3425000310000001,-0.9219558415,0.9952255588777217,-3.504454304157277,,,,
89,100,1.350000024,-0.950051872,0.994563095880843,-3.746140896398148,-6.349324396611999,5.586062025228471,-17.52089902,-0.719464768
10092,100,1.357500017,-0.9815896005,0.9938194827168106,-3.9755876438818403,,,,
90,100,1.36500001,-1.013127329,0.9930758695527783,-4.205034391365476,-6.349324396611999,5.586062025228471,-17.52089902,-0.719464768
10093,100,1.3725000024999998,-1.0479143265,0.9922556434138488,-4.421652674264303,,,,
91,100,1.379999995,-1.082701324,0.9914354172749192,-4.63827097160431,-6.349324396611999,5.586062025228471,-17.52089902,-0.719464768
10094,100,1.387499988,-1.1205372195,0.9905433026140058,-4.841530880146443,,,,
92,100,1.394999981,-1.158373115,0.9896511879530925,-5.04479077513803,-6.349324396611999,5.586062025228471,-17.52089902,-0.719464768
10095,100,1.402499974,-1.1990546275,0.9886919778366204,-5.234498752198883,,,,
93,100,1.409999967,-1.23973614,0.9877327677201484,-5.4242067292595815,-6.349324396611999,5.586062025228471,-17.52089902,-0.719464768
